
T17E8 000:116 SEGGER J-Link V4.68a Log File (0000ms, 0114ms total)
T17E8 000:116 DLL Compiled: Apr 12 2013 13:26:50 (0000ms, 0114ms total)
T17E8 000:116 Logging started @ 2015-10-28 16:18 (0000ms, 0114ms total)
T17E8 000:116 JLINK_SetWarnOutHandler(...) (0000ms, 0114ms total)
T17E8 000:116 JLINK_OpenEx(...)
Firmware: J-Link ARM V7 compiled Jun 20 2012 19:45:53
Hardware: V7.00
Feature(s): RDI, FlashBP, FlashDL, JFlash, GDBFULL  returns O.K. (0025ms, 0139ms total)
T17E8 000:141 JLINK_SetErrorOutHandler(...) (0000ms, 0139ms total)
T17E8 000:141 JLINK_ExecCommand("ProjectFile = "E:\Project\NAD\C368\NAD_C358_RTOS\JLinkSettings.ini"", ...)
                JLINK_AddMirrorAreaEx(Addr = 0x00000000, Size = 0x00000000) (0000ms, 0000ms total)
              Device "UNSPECIFIED" selected (0 KB flash, 0 KB RAM).  returns 0x00 (0004ms, 0143ms total)
T17E8 000:148 JLINK_ExecCommand("Device = TM4C1290NCZAD", ...)
                JLINK_AddMirrorAreaEx(Addr = 0x00000000, Size = 0x00000000) (0000ms, 0000ms total)
              Device "UNSPECIFIED" selected (0 KB flash, 0 KB RAM).  returns 0x00 (0005ms, 0148ms total)
T17E8 000:153 JLINK_ExecCommand("DisableConnectionTimeout", ...)  returns 0x00 (0000ms, 0148ms total)
T17E8 000:153 JLINK_GetHardwareVersion()  returns 0x11170 (0000ms, 0148ms total)
T17E8 000:153 JLINK_GetDLLVersion()  returns 46801 (0000ms, 0148ms total)
T17E8 000:153 JLINK_GetFirmwareString(...) (0000ms, 0148ms total)
T17E8 000:177 JLINK_GetDLLVersion()  returns 46801 (0000ms, 0148ms total)
T17E8 000:177 JLINK_GetCompileDateTime() (0000ms, 0148ms total)
T17E8 000:191 JLINK_GetFirmwareString(...) (0000ms, 0148ms total)
T17E8 000:203 JLINK_GetHardwareVersion()  returns 0x11170 (0000ms, 0148ms total)
T17E8 000:236 JLINK_TIF_Select(JLINKARM_TIF_SWD)  returns 0x00 (0005ms, 0153ms total)
T17E8 000:241 JLINK_SetSpeed(2000) (0001ms, 0154ms total)
T17E8 000:242 JLINK_GetId() >0x108 TIF>Found SWD-DP with ID 0x2BA01477 >0x0D TIF> >0x21 TIF> >0x0D TIF> >0x28 TIF> >0x0D TIF> >0x28 TIF> >0x0D TIF> >0x21 TIF> >0x0D TIF> >0x21 TIF> >0x0D TIF> >0x28 TIF> >0x0D TIF> >0x21 TIF> >0x0D TIF> >0x21 TIF> >0x0D TIF> >0x21 TIF> >0x0D TIF> >0x21 TIF> >0x0D TIF> >0x28 TIF> >0x0D TIF> >0x21 TIF> >0x0D TIF> >0x28 TIF> >0x0D TIF> >0x28 TIF> >0x0D TIF> >0x21 TIF> >0x0D TIF> >0x21 TIF> >0x0D TIF> >0x28 TIF> >0x0D TIF> >0x21 TIF> >0x0D TIF> >0x21 TIF> >0x0D TIF>
 >0x28 TIF> >0x0D TIF> >0x28 TIF> >0x0D TIF> >0x28 TIF> >0x0D TIF> >0x21 TIF> >0x0D TIF> >0x21 TIF> >0x0D TIF> >0x28 TIF> >0x0D TIF> >0x28 TIF> >0x0D TIF> >0x28 TIF> >0x0D TIF> >0x21 TIF> >0x0D TIF> >0x21 TIF> >0x0D TIF> >0x21 TIF>TPIU fitted.ETM fitted. >0x0D TIF> >0x28 TIF> >0x0D TIF> >0x21 TIF> >0x0D TIF> >0x21 TIF> >0x0D TIF> >0x28 TIF> >0x0D TIF> >0x21 TIF> >0x0D TIF> >0x21 TIF>FPUnit: 6 code (BP) slots and 2 literal slots >0x0D TIF> >0x28 TIF> >0x0D TIF> >0x21 TIF> >0x0D TIF> >0x21 TIF> >0x0D TIF>
 >0x28 TIF> >0x0D TIF> >0x21 TIF> >0x0D TIF> >0x21 TIF> >0x0D TIF> >0x28 TIF> >0x0D TIF> >0x21 TIF> >0x0D TIF> >0x21 TIF> >0x0D TIF> >0x28 TIF> >0x0D TIF> >0x21 TIF> >0x0D TIF> >0x21 TIF>Found Cortex-M4 r0p1, Little endian. >0x0D TIF> >0x28 TIF> >0x0D TIF> >0x21 TIF>  returns 0x2BA01477 (0174ms, 0328ms total)
T17E8 000:416 JLINK_GetDeviceFamily()  returns 14 (0000ms, 0328ms total)
T17E8 000:429 JLINK_ReadMem (0xE00FFFF0, 0x0010 Bytes, ...) -- CPU is running -- CPU_ReadMem(16 bytes @ 0xE00FFFF0) -- Data:  0D 00 00 00 10 00 00 00 05 00 00 00 B1 00 00 00  returns 0x00 (0002ms, 0330ms total)
T17E8 000:431 JLINK_ReadMem (0xE00FFFD0, 0x0020 Bytes, ...) -- CPU is running -- CPU_ReadMem(32 bytes @ 0xE00FFFD0) -- Data:  04 00 00 00 00 00 00 00 00 00 00 00 00 00 00 00 ...  returns 0x00 (0002ms, 0332ms total)
T17E8 000:433 JLINK_ReadMem (0xE00FF000, 0x0018 Bytes, ...) -- CPU is running -- CPU_ReadMem(24 bytes @ 0xE00FF000) -- Data:  03 F0 F0 FF 03 20 F0 FF 03 30 F0 FF 03 10 F0 FF ...  returns 0x00 (0002ms, 0334ms total)
T17E8 000:435 JLINK_ReadMemU32(0xE000ED00, 0x0001 Items, ...) -- CPU is running -- CPU_ReadMem(4 bytes @ 0xE000ED00) -- Data:  41 C2 0F 41  returns 0x01 (0001ms, 0335ms total)
T17E8 000:437 JLINK_ReadMemU32(0xE000EF40, 0x0001 Items, ...) -- CPU is running -- CPU_ReadMem(4 bytes @ 0xE000EF40) -- Data:  21 00 11 10  returns 0x01 (0001ms, 0337ms total)
T17E8 000:438 JLINK_ReadMemU32(0xE000EF44, 0x0001 Items, ...) -- CPU is running -- CPU_ReadMem(4 bytes @ 0xE000EF44) -- Data:  11 00 00 11  returns 0x01 (0002ms, 0339ms total)
T17E8 000:440 JLINK_SetResetType(JLINKARM_RESET_TYPE_NORMAL)  returns JLINKARM_RESET_TYPE_NORMAL (0000ms, 0339ms total)
T17E8 000:440 JLINK_Reset() -- CPU_WriteMem(4 bytes @ 0xE0002000) (0017ms, 0356ms total)
T17E8 000:457 JLINK_Halt()  returns 0x00 (0000ms, 0356ms total)
T17E8 000:457 JLINK_IsHalted()  returns TRUE (0000ms, 0356ms total)
T17E8 000:457 JLINK_ReadMemU32(0xE000EDF0, 0x0001 Items, ...) -- CPU_ReadMem(4 bytes @ 0xE000EDF0) -- Data:  03 00 03 00  returns 0x01 (0001ms, 0357ms total)
T17E8 000:458 JLINK_WriteU32(0xE000EDF0, 0xA05F0003) -- CPU_WriteMem(4 bytes @ 0xE000EDF0)  returns 0x00 (0001ms, 0358ms total)
T17E8 000:459 JLINK_WriteU32(0xE000EDFC, 0x01000000) -- CPU_WriteMem(4 bytes @ 0xE000EDFC)  returns 0x00 (0002ms, 0360ms total)
T17E8 000:492 JLINK_GetHWStatus(...)  returns 0x00 (0001ms, 0361ms total)
T17E8 000:514 JLINK_GetNumBPUnits(Type = 0xFFFFFF00)  returns 0x06 (0000ms, 0361ms total)
T17E8 000:514 JLINK_GetNumBPUnits(Type = 0xF0)  returns 0x2000 (0000ms, 0361ms total)
T17E8 000:514 JLINK_GetNumWPUnits()  returns 0x04 (0000ms, 0361ms total)
T17E8 000:533 JLINK_GetSpeed()  returns 0x7D0 (0000ms, 0361ms total)
T17E8 000:547 JLINK_ReadMemU32(0xE000E004, 0x0001 Items, ...) -- CPU_ReadMem(4 bytes @ 0xE000E004) -- Data:  03 00 00 00  returns 0x01 (0001ms, 0362ms total)
T17E8 000:548 JLINK_ReadMemU32(0xE000E004, 0x0001 Items, ...) -- CPU_ReadMem(4 bytes @ 0xE000E004) -- Data:  03 00 00 00  returns 0x01 (0002ms, 0364ms total)
T17E8 000:550 JLINK_WriteMem(0xE0001000, 0x001C Bytes, ...) -- Data:  01 00 00 00 00 00 00 00 00 00 00 00 00 00 00 00 ... -- CPU_WriteMem(28 bytes @ 0xE0001000)  returns 0x1C (0002ms, 0366ms total)
T17E8 000:552 JLINK_ReadMem (0xE0001000, 0x001C Bytes, ...) -- CPU_ReadMem(28 bytes @ 0xE0001000) -- Data:  01 00 00 40 00 00 00 00 00 00 00 00 00 00 00 00 ...  returns 0x00 (0002ms, 0368ms total)
T17E8 000:554 JLINK_Halt()  returns 0x00 (0001ms, 0369ms total)
T17E8 000:555 JLINK_IsHalted()  returns TRUE (0000ms, 0369ms total)
T17E8 000:563 JLINK_WriteMem(0x20000000, 0x0128 Bytes, ...) -- Data:  00 BE 0A E0 0D 78 2D 06 68 40 08 24 40 00 00 D3 ... -- CPU_WriteMem(296 bytes @ 0x20000000)  returns 0x128 (0004ms, 0373ms total)
T17E8 000:567 JLINK_WriteReg(R0, 0x00000000)  returns 0x00 (0000ms, 0373ms total)
T17E8 000:567 JLINK_WriteReg(R1, 0x00F42400)  returns 0x00 (0000ms, 0373ms total)
T17E8 000:567 JLINK_WriteReg(R2, 0x00000001)  returns 0x00 (0000ms, 0373ms total)
T17E8 000:567 JLINK_WriteReg(R3, 0x00000000)  returns 0x00 (0000ms, 0373ms total)
T17E8 000:567 JLINK_WriteReg(R4, 0x00000000)  returns 0x00 (0000ms, 0373ms total)
T17E8 000:567 JLINK_WriteReg(R5, 0x00000000)  returns 0x00 (0000ms, 0373ms total)
T17E8 000:567 JLINK_WriteReg(R6, 0x00000000)  returns 0x00 (0000ms, 0373ms total)
T17E8 000:567 JLINK_WriteReg(R7, 0x00000000)  returns 0x00 (0000ms, 0373ms total)
T17E8 000:567 JLINK_WriteReg(R8, 0x00000000)  returns 0x00 (0000ms, 0373ms total)
T17E8 000:567 JLINK_WriteReg(R9, 0x20000124)  returns 0x00 (0000ms, 0373ms total)
T17E8 000:567 JLINK_WriteReg(R10, 0x00000000)  returns 0x00 (0000ms, 0373ms total)
T17E8 000:567 JLINK_WriteReg(R11, 0x00000000)  returns 0x00 (0000ms, 0373ms total)
T17E8 000:568 JLINK_WriteReg(R12, 0x00000000)  returns 0x00 (0000ms, 0373ms total)
T17E8 000:568 JLINK_WriteReg(R13, 0x20000800)  returns 0x00 (0000ms, 0373ms total)
T17E8 000:568 JLINK_WriteReg(R14, 0x20000001)  returns 0x00 (0000ms, 0373ms total)
T17E8 000:568 JLINK_WriteReg(R15, 0x20000038)  returns 0x00 (0000ms, 0373ms total)
T17E8 000:568 JLINK_WriteReg(XPSR, 0x01000000)  returns 0x00 (0000ms, 0373ms total)
T17E8 000:568 JLINK_WriteReg(MSP, 0x20000800)  returns 0x00 (0000ms, 0373ms total)
T17E8 000:568 JLINK_WriteReg(PSP, 0x20000800)  returns 0x00 (0000ms, 0373ms total)
T17E8 000:568 JLINK_WriteReg(CFBP, 0x00000000)  returns 0x00 (0000ms, 0373ms total)
T17E8 000:568 JLINK_SetBPEx(Addr = 0x20000000, Type = 0xFFFFFFF2) -- CPU_ReadMem(4 bytes @ 0x20000000) -- CPU_WriteMem(4 bytes @ 0x20000000) -- CPU_ReadMem(4 bytes @ 0x20000000) -- CPU_WriteMem(4 bytes @ 0x20000000) -- CPU_ReadMem(2 bytes @ 0x20000000)  returns 0x00000001 (0008ms, 0381ms total)
T17E8 000:576 JLINK_Go() -- CPU_WriteMem(2 bytes @ 0x20000000) -- CPU_WriteMem(4 bytes @ 0xE0002008) -- CPU_WriteMem(4 bytes @ 0xE000200C) -- CPU_WriteMem(4 bytes @ 0xE0002010) -- CPU_WriteMem(4 bytes @ 0xE0002014) -- CPU_WriteMem(4 bytes @ 0xE0002018) -- CPU_WriteMem(4 bytes @ 0xE000201C) (0012ms, 0393ms total)
T17E8 000:589 JLINK_IsHalted() -- CPU_ReadMem(2 bytes @ 0x20000000)  returns TRUE (0008ms, 0401ms total)
T17E8 000:597 JLINK_ReadReg(R15)  returns 0x20000000 (0000ms, 0393ms total)
T17E8 000:597 JLINK_ClrBPEx(BPHandle = 0x00000001)  returns 0x00 (0000ms, 0393ms total)
T17E8 000:597 JLINK_ReadReg(R0)  returns 0x00000000 (0000ms, 0393ms total)
T17E8 000:598 JLINK_WriteReg(R0, 0x00000000)  returns 0x00 (0000ms, 0393ms total)
T17E8 000:598 JLINK_WriteReg(R1, 0x00004000)  returns 0x00 (0000ms, 0393ms total)
T17E8 000:598 JLINK_WriteReg(R2, 0x000000FF)  returns 0x00 (0000ms, 0393ms total)
T17E8 000:598 JLINK_WriteReg(R3, 0x00000000)  returns 0x00 (0000ms, 0393ms total)
T17E8 000:598 JLINK_WriteReg(R4, 0x00000000)  returns 0x00 (0000ms, 0393ms total)
T17E8 000:598 JLINK_WriteReg(R5, 0x00000000)  returns 0x00 (0000ms, 0393ms total)
T17E8 000:598 JLINK_WriteReg(R6, 0x00000000)  returns 0x00 (0000ms, 0393ms total)
T17E8 000:598 JLINK_WriteReg(R7, 0x00000000)  returns 0x00 (0000ms, 0393ms total)
T17E8 000:598 JLINK_WriteReg(R8, 0x00000000)  returns 0x00 (0000ms, 0393ms total)
T17E8 000:598 JLINK_WriteReg(R9, 0x20000124)  returns 0x00 (0000ms, 0393ms total)
T17E8 000:598 JLINK_WriteReg(R10, 0x00000000)  returns 0x00 (0000ms, 0393ms total)
T17E8 000:598 JLINK_WriteReg(R11, 0x00000000)  returns 0x00 (0000ms, 0393ms total)
T17E8 000:598 JLINK_WriteReg(R12, 0x00000000)  returns 0x00 (0000ms, 0393ms total)
T17E8 000:598 JLINK_WriteReg(R13, 0x20000800)  returns 0x00 (0000ms, 0393ms total)
T17E8 000:598 JLINK_WriteReg(R14, 0x20000001)  returns 0x00 (0000ms, 0393ms total)
T17E8 000:598 JLINK_WriteReg(R15, 0x20000020)  returns 0x00 (0000ms, 0393ms total)
T17E8 000:598 JLINK_WriteReg(XPSR, 0x01000000)  returns 0x00 (0000ms, 0393ms total)
T17E8 000:598 JLINK_WriteReg(MSP, 0x20000800)  returns 0x00 (0000ms, 0393ms total)
T17E8 000:598 JLINK_WriteReg(PSP, 0x20000800)  returns 0x00 (0000ms, 0393ms total)
T17E8 000:598 JLINK_WriteReg(CFBP, 0x00000000)  returns 0x00 (0000ms, 0393ms total)
T17E8 000:598 JLINK_SetBPEx(Addr = 0x20000000, Type = 0xFFFFFFF2)  returns 0x00000002 (0000ms, 0393ms total)
T17E8 000:598 JLINK_Go() (0003ms, 0396ms total)
T17E8 000:601 JLINK_IsHalted() -- CPU_ReadMem(2 bytes @ 0x20000000)  returns TRUE (0009ms, 0405ms total)
T17E8 000:610 JLINK_ReadReg(R15)  returns 0x20000000 (0000ms, 0396ms total)
T17E8 000:610 JLINK_ClrBPEx(BPHandle = 0x00000002)  returns 0x00 (0000ms, 0396ms total)
T17E8 000:610 JLINK_ReadReg(R0)  returns 0x00000001 (0000ms, 0396ms total)
T17E8 000:610 JLINK_WriteReg(R0, 0x00000000)  returns 0x00 (0000ms, 0396ms total)
T17E8 000:610 JLINK_WriteReg(R1, 0x00004000)  returns 0x00 (0000ms, 0396ms total)
T17E8 000:610 JLINK_WriteReg(R2, 0x000000FF)  returns 0x00 (0000ms, 0396ms total)
T17E8 000:610 JLINK_WriteReg(R3, 0x00000000)  returns 0x00 (0000ms, 0396ms total)
T17E8 000:610 JLINK_WriteReg(R4, 0x00000000)  returns 0x00 (0000ms, 0396ms total)
T17E8 000:610 JLINK_WriteReg(R5, 0x00000000)  returns 0x00 (0000ms, 0396ms total)
T17E8 000:610 JLINK_WriteReg(R6, 0x00000000)  returns 0x00 (0000ms, 0396ms total)
T17E8 000:610 JLINK_WriteReg(R7, 0x00000000)  returns 0x00 (0000ms, 0396ms total)
T17E8 000:610 JLINK_WriteReg(R8, 0x00000000)  returns 0x00 (0000ms, 0396ms total)
T17E8 000:610 JLINK_WriteReg(R9, 0x20000124)  returns 0x00 (0000ms, 0396ms total)
T17E8 000:610 JLINK_WriteReg(R10, 0x00000000)  returns 0x00 (0000ms, 0396ms total)
T17E8 000:610 JLINK_WriteReg(R11, 0x00000000)  returns 0x00 (0000ms, 0396ms total)
T17E8 000:610 JLINK_WriteReg(R12, 0x00000000)  returns 0x00 (0000ms, 0396ms total)
T17E8 000:610 JLINK_WriteReg(R13, 0x20000800)  returns 0x00 (0000ms, 0396ms total)
T17E8 000:610 JLINK_WriteReg(R14, 0x20000001)  returns 0x00 (0000ms, 0396ms total)
T17E8 000:610 JLINK_WriteReg(R15, 0x20000070)  returns 0x00 (0000ms, 0396ms total)
T17E8 000:610 JLINK_WriteReg(XPSR, 0x01000000)  returns 0x00 (0000ms, 0396ms total)
T17E8 000:610 JLINK_WriteReg(MSP, 0x20000800)  returns 0x00 (0000ms, 0396ms total)
T17E8 000:610 JLINK_WriteReg(PSP, 0x20000800)  returns 0x00 (0000ms, 0396ms total)
T17E8 000:610 JLINK_WriteReg(CFBP, 0x00000000)  returns 0x00 (0000ms, 0396ms total)
T17E8 000:610 JLINK_SetBPEx(Addr = 0x20000000, Type = 0xFFFFFFF2)  returns 0x00000003 (0000ms, 0396ms total)
T17E8 000:610 JLINK_Go() (0004ms, 0400ms total)
T17E8 000:614 JLINK_IsHalted()  returns FALSE (0001ms, 0401ms total)
T17E8 000:742 JLINK_IsHalted() -- CPU_ReadMem(2 bytes @ 0x20000000)  returns TRUE (0007ms, 0407ms total)
T17E8 000:749 JLINK_ReadReg(R15)  returns 0x20000000 (0000ms, 0400ms total)
T17E8 000:749 JLINK_ClrBPEx(BPHandle = 0x00000003)  returns 0x00 (0000ms, 0400ms total)
T17E8 000:749 JLINK_ReadReg(R0)  returns 0x00000000 (0000ms, 0400ms total)
T17E8 000:750 JLINK_WriteReg(R0, 0x00004000)  returns 0x00 (0000ms, 0400ms total)
T17E8 000:750 JLINK_WriteReg(R1, 0x00004000)  returns 0x00 (0000ms, 0400ms total)
T17E8 000:750 JLINK_WriteReg(R2, 0x000000FF)  returns 0x00 (0000ms, 0400ms total)
T17E8 000:750 JLINK_WriteReg(R3, 0x00000000)  returns 0x00 (0000ms, 0400ms total)
T17E8 000:750 JLINK_WriteReg(R4, 0x00000000)  returns 0x00 (0000ms, 0400ms total)
T17E8 000:750 JLINK_WriteReg(R5, 0x00000000)  returns 0x00 (0000ms, 0400ms total)
T17E8 000:750 JLINK_WriteReg(R6, 0x00000000)  returns 0x00 (0000ms, 0400ms total)
T17E8 000:750 JLINK_WriteReg(R7, 0x00000000)  returns 0x00 (0000ms, 0400ms total)
T17E8 000:750 JLINK_WriteReg(R8, 0x00000000)  returns 0x00 (0000ms, 0400ms total)
T17E8 000:750 JLINK_WriteReg(R9, 0x20000124)  returns 0x00 (0000ms, 0400ms total)
T17E8 000:750 JLINK_WriteReg(R10, 0x00000000)  returns 0x00 (0000ms, 0400ms total)
T17E8 000:750 JLINK_WriteReg(R11, 0x00000000)  returns 0x00 (0000ms, 0400ms total)
T17E8 000:750 JLINK_WriteReg(R12, 0x00000000)  returns 0x00 (0000ms, 0400ms total)
T17E8 000:750 JLINK_WriteReg(R13, 0x20000800)  returns 0x00 (0000ms, 0400ms total)
T17E8 000:750 JLINK_WriteReg(R14, 0x20000001)  returns 0x00 (0000ms, 0400ms total)
T17E8 000:750 JLINK_WriteReg(R15, 0x20000020)  returns 0x00 (0000ms, 0400ms total)
T17E8 000:750 JLINK_WriteReg(XPSR, 0x01000000)  returns 0x00 (0000ms, 0400ms total)
T17E8 000:750 JLINK_WriteReg(MSP, 0x20000800)  returns 0x00 (0000ms, 0400ms total)
T17E8 000:750 JLINK_WriteReg(PSP, 0x20000800)  returns 0x00 (0000ms, 0400ms total)
T17E8 000:750 JLINK_WriteReg(CFBP, 0x00000000)  returns 0x00 (0000ms, 0400ms total)
T17E8 000:750 JLINK_SetBPEx(Addr = 0x20000000, Type = 0xFFFFFFF2)  returns 0x00000004 (0000ms, 0400ms total)
T17E8 000:750 JLINK_Go() (0003ms, 0403ms total)
T17E8 000:753 JLINK_IsHalted() -- CPU_ReadMem(2 bytes @ 0x20000000)  returns TRUE (0009ms, 0412ms total)
T17E8 000:762 JLINK_ReadReg(R15)  returns 0x20000000 (0000ms, 0403ms total)
T17E8 000:762 JLINK_ClrBPEx(BPHandle = 0x00000004)  returns 0x00 (0000ms, 0403ms total)
T17E8 000:762 JLINK_ReadReg(R0)  returns 0x00000001 (0000ms, 0403ms total)
T17E8 000:762 JLINK_WriteReg(R0, 0x00004000)  returns 0x00 (0000ms, 0403ms total)
T17E8 000:762 JLINK_WriteReg(R1, 0x00004000)  returns 0x00 (0000ms, 0403ms total)
T17E8 000:762 JLINK_WriteReg(R2, 0x000000FF)  returns 0x00 (0000ms, 0403ms total)
T17E8 000:762 JLINK_WriteReg(R3, 0x00000000)  returns 0x00 (0000ms, 0403ms total)
T17E8 000:762 JLINK_WriteReg(R4, 0x00000000)  returns 0x00 (0000ms, 0403ms total)
T17E8 000:762 JLINK_WriteReg(R5, 0x00000000)  returns 0x00 (0000ms, 0403ms total)
T17E8 000:762 JLINK_WriteReg(R6, 0x00000000)  returns 0x00 (0000ms, 0403ms total)
T17E8 000:762 JLINK_WriteReg(R7, 0x00000000)  returns 0x00 (0000ms, 0403ms total)
T17E8 000:762 JLINK_WriteReg(R8, 0x00000000)  returns 0x00 (0000ms, 0403ms total)
T17E8 000:762 JLINK_WriteReg(R9, 0x20000124)  returns 0x00 (0000ms, 0403ms total)
T17E8 000:762 JLINK_WriteReg(R10, 0x00000000)  returns 0x00 (0000ms, 0403ms total)
T17E8 000:762 JLINK_WriteReg(R11, 0x00000000)  returns 0x00 (0000ms, 0403ms total)
T17E8 000:762 JLINK_WriteReg(R12, 0x00000000)  returns 0x00 (0000ms, 0403ms total)
T17E8 000:762 JLINK_WriteReg(R13, 0x20000800)  returns 0x00 (0000ms, 0403ms total)
T17E8 000:762 JLINK_WriteReg(R14, 0x20000001)  returns 0x00 (0000ms, 0403ms total)
T17E8 000:762 JLINK_WriteReg(R15, 0x20000070)  returns 0x00 (0000ms, 0403ms total)
T17E8 000:762 JLINK_WriteReg(XPSR, 0x01000000)  returns 0x00 (0000ms, 0403ms total)
T17E8 000:762 JLINK_WriteReg(MSP, 0x20000800)  returns 0x00 (0000ms, 0403ms total)
T17E8 000:762 JLINK_WriteReg(PSP, 0x20000800)  returns 0x00 (0000ms, 0403ms total)
T17E8 000:762 JLINK_WriteReg(CFBP, 0x00000000)  returns 0x00 (0000ms, 0403ms total)
T17E8 000:762 JLINK_SetBPEx(Addr = 0x20000000, Type = 0xFFFFFFF2)  returns 0x00000005 (0000ms, 0403ms total)
T17E8 000:762 JLINK_Go() (0003ms, 0406ms total)
T17E8 000:765 JLINK_IsHalted()  returns FALSE (0001ms, 0407ms total)
T17E8 000:800 JLINK_IsHalted()  returns FALSE (0001ms, 0407ms total)
T17E8 000:803 JLINK_IsHalted() -- CPU_ReadMem(2 bytes @ 0x20000000)  returns TRUE (0007ms, 0413ms total)
T17E8 000:810 JLINK_ReadReg(R15)  returns 0x20000000 (0000ms, 0406ms total)
T17E8 000:810 JLINK_ClrBPEx(BPHandle = 0x00000005)  returns 0x00 (0000ms, 0406ms total)
T17E8 000:810 JLINK_ReadReg(R0)  returns 0x00000000 (0000ms, 0406ms total)
T17E8 000:811 JLINK_WriteReg(R0, 0x00000001)  returns 0x00 (0000ms, 0406ms total)
T17E8 000:811 JLINK_WriteReg(R1, 0x00004000)  returns 0x00 (0000ms, 0406ms total)
T17E8 000:811 JLINK_WriteReg(R2, 0x000000FF)  returns 0x00 (0000ms, 0406ms total)
T17E8 000:811 JLINK_WriteReg(R3, 0x00000000)  returns 0x00 (0000ms, 0406ms total)
T17E8 000:811 JLINK_WriteReg(R4, 0x00000000)  returns 0x00 (0000ms, 0406ms total)
T17E8 000:811 JLINK_WriteReg(R5, 0x00000000)  returns 0x00 (0000ms, 0406ms total)
T17E8 000:811 JLINK_WriteReg(R6, 0x00000000)  returns 0x00 (0000ms, 0406ms total)
T17E8 000:811 JLINK_WriteReg(R7, 0x00000000)  returns 0x00 (0000ms, 0406ms total)
T17E8 000:811 JLINK_WriteReg(R8, 0x00000000)  returns 0x00 (0000ms, 0406ms total)
T17E8 000:811 JLINK_WriteReg(R9, 0x20000124)  returns 0x00 (0000ms, 0406ms total)
T17E8 000:811 JLINK_WriteReg(R10, 0x00000000)  returns 0x00 (0000ms, 0406ms total)
T17E8 000:811 JLINK_WriteReg(R11, 0x00000000)  returns 0x00 (0000ms, 0406ms total)
T17E8 000:811 JLINK_WriteReg(R12, 0x00000000)  returns 0x00 (0000ms, 0406ms total)
T17E8 000:811 JLINK_WriteReg(R13, 0x20000800)  returns 0x00 (0000ms, 0406ms total)
T17E8 000:811 JLINK_WriteReg(R14, 0x20000001)  returns 0x00 (0000ms, 0406ms total)
T17E8 000:811 JLINK_WriteReg(R15, 0x20000052)  returns 0x00 (0000ms, 0406ms total)
T17E8 000:811 JLINK_WriteReg(XPSR, 0x01000000)  returns 0x00 (0000ms, 0406ms total)
T17E8 000:811 JLINK_WriteReg(MSP, 0x20000800)  returns 0x00 (0000ms, 0406ms total)
T17E8 000:811 JLINK_WriteReg(PSP, 0x20000800)  returns 0x00 (0000ms, 0406ms total)
T17E8 000:811 JLINK_WriteReg(CFBP, 0x00000000)  returns 0x00 (0000ms, 0406ms total)
T17E8 000:811 JLINK_SetBPEx(Addr = 0x20000000, Type = 0xFFFFFFF2)  returns 0x00000006 (0000ms, 0406ms total)
T17E8 000:811 JLINK_Go() (0003ms, 0409ms total)
T17E8 000:814 JLINK_IsHalted() -- CPU_ReadMem(2 bytes @ 0x20000000)  returns TRUE (0008ms, 0417ms total)
T17E8 000:822 JLINK_ReadReg(R15)  returns 0x20000000 (0000ms, 0409ms total)
T17E8 000:822 JLINK_ClrBPEx(BPHandle = 0x00000006)  returns 0x00 (0000ms, 0409ms total)
T17E8 000:822 JLINK_ReadReg(R0)  returns 0x00000000 (0000ms, 0409ms total)
T17E8 000:886 JLINK_WriteMem(0x20000000, 0x0128 Bytes, ...) -- Data:  00 BE 0A E0 0D 78 2D 06 68 40 08 24 40 00 00 D3 ... -- CPU_WriteMem(296 bytes @ 0x20000000)  returns 0x128 (0004ms, 0413ms total)
T17E8 000:890 JLINK_WriteReg(R0, 0x00000000)  returns 0x00 (0000ms, 0413ms total)
T17E8 000:890 JLINK_WriteReg(R1, 0x00F42400)  returns 0x00 (0000ms, 0413ms total)
T17E8 000:890 JLINK_WriteReg(R2, 0x00000002)  returns 0x00 (0000ms, 0413ms total)
T17E8 000:890 JLINK_WriteReg(R3, 0x00000000)  returns 0x00 (0000ms, 0413ms total)
T17E8 000:890 JLINK_WriteReg(R4, 0x00000000)  returns 0x00 (0000ms, 0413ms total)
T17E8 000:890 JLINK_WriteReg(R5, 0x00000000)  returns 0x00 (0000ms, 0413ms total)
T17E8 000:890 JLINK_WriteReg(R6, 0x00000000)  returns 0x00 (0001ms, 0414ms total)
T17E8 000:891 JLINK_WriteReg(R7, 0x00000000)  returns 0x00 (0000ms, 0414ms total)
T17E8 000:891 JLINK_WriteReg(R8, 0x00000000)  returns 0x00 (0000ms, 0414ms total)
T17E8 000:891 JLINK_WriteReg(R9, 0x20000124)  returns 0x00 (0000ms, 0414ms total)
T17E8 000:891 JLINK_WriteReg(R10, 0x00000000)  returns 0x00 (0000ms, 0414ms total)
T17E8 000:891 JLINK_WriteReg(R11, 0x00000000)  returns 0x00 (0000ms, 0414ms total)
T17E8 000:891 JLINK_WriteReg(R12, 0x00000000)  returns 0x00 (0000ms, 0414ms total)
T17E8 000:891 JLINK_WriteReg(R13, 0x20000800)  returns 0x00 (0000ms, 0414ms total)
T17E8 000:891 JLINK_WriteReg(R14, 0x20000001)  returns 0x00 (0000ms, 0414ms total)
T17E8 000:891 JLINK_WriteReg(R15, 0x20000038)  returns 0x00 (0000ms, 0414ms total)
T17E8 000:891 JLINK_WriteReg(XPSR, 0x01000000)  returns 0x00 (0000ms, 0414ms total)
T17E8 000:891 JLINK_WriteReg(MSP, 0x20000800)  returns 0x00 (0000ms, 0414ms total)
T17E8 000:891 JLINK_WriteReg(PSP, 0x20000800)  returns 0x00 (0000ms, 0414ms total)
T17E8 000:891 JLINK_WriteReg(CFBP, 0x00000000)  returns 0x00 (0000ms, 0414ms total)
T17E8 000:891 JLINK_SetBPEx(Addr = 0x20000000, Type = 0xFFFFFFF2) -- CPU_ReadMem(4 bytes @ 0x20000000) -- CPU_WriteMem(4 bytes @ 0x20000000) -- CPU_ReadMem(4 bytes @ 0x20000000) -- CPU_WriteMem(4 bytes @ 0x20000000) -- CPU_ReadMem(2 bytes @ 0x20000000)  returns 0x00000007 (0007ms, 0421ms total)
T17E8 000:898 JLINK_Go() -- CPU_WriteMem(2 bytes @ 0x20000000) (0004ms, 0425ms total)
T17E8 000:902 JLINK_IsHalted() -- CPU_ReadMem(2 bytes @ 0x20000000)  returns TRUE (0009ms, 0434ms total)
T17E8 000:911 JLINK_ReadReg(R15)  returns 0x20000000 (0000ms, 0425ms total)
T17E8 000:911 JLINK_ClrBPEx(BPHandle = 0x00000007)  returns 0x00 (0000ms, 0425ms total)
T17E8 000:911 JLINK_ReadReg(R0)  returns 0x00000000 (0000ms, 0425ms total)
T17E8 000:912 JLINK_WriteMem(0x20000128, 0x0400 Bytes, ...) -- Data:  48 CD 00 20 01 02 00 00 15 02 00 00 BB 1F 00 00 ... -- CPU_WriteMem(1024 bytes @ 0x20000128)  returns 0x400 (0010ms, 0435ms total)
T17E8 000:922 JLINK_WriteReg(R0, 0x00000000)  returns 0x00 (0000ms, 0435ms total)
T17E8 000:922 JLINK_WriteReg(R1, 0x00000400)  returns 0x00 (0000ms, 0435ms total)
T17E8 000:922 JLINK_WriteReg(R2, 0x20000128)  returns 0x00 (0000ms, 0435ms total)
T17E8 000:922 JLINK_WriteReg(R3, 0x00000000)  returns 0x00 (0000ms, 0435ms total)
T17E8 000:922 JLINK_WriteReg(R4, 0x00000000)  returns 0x00 (0000ms, 0435ms total)
T17E8 000:922 JLINK_WriteReg(R5, 0x00000000)  returns 0x00 (0000ms, 0435ms total)
T17E8 000:922 JLINK_WriteReg(R6, 0x00000000)  returns 0x00 (0000ms, 0435ms total)
T17E8 000:922 JLINK_WriteReg(R7, 0x00000000)  returns 0x00 (0000ms, 0435ms total)
T17E8 000:922 JLINK_WriteReg(R8, 0x00000000)  returns 0x00 (0000ms, 0435ms total)
T17E8 000:922 JLINK_WriteReg(R9, 0x20000124)  returns 0x00 (0000ms, 0435ms total)
T17E8 000:922 JLINK_WriteReg(R10, 0x00000000)  returns 0x00 (0000ms, 0435ms total)
T17E8 000:922 JLINK_WriteReg(R11, 0x00000000)  returns 0x00 (0000ms, 0435ms total)
T17E8 000:922 JLINK_WriteReg(R12, 0x00000000)  returns 0x00 (0000ms, 0435ms total)
T17E8 000:922 JLINK_WriteReg(R13, 0x20000800)  returns 0x00 (0000ms, 0435ms total)
T17E8 000:922 JLINK_WriteReg(R14, 0x20000001)  returns 0x00 (0000ms, 0435ms total)
T17E8 000:922 JLINK_WriteReg(R15, 0x20000092)  returns 0x00 (0000ms, 0435ms total)
T17E8 000:922 JLINK_WriteReg(XPSR, 0x01000000)  returns 0x00 (0000ms, 0435ms total)
T17E8 000:922 JLINK_WriteReg(MSP, 0x20000800)  returns 0x00 (0000ms, 0435ms total)
T17E8 000:922 JLINK_WriteReg(PSP, 0x20000800)  returns 0x00 (0000ms, 0435ms total)
T17E8 000:922 JLINK_WriteReg(CFBP, 0x00000000)  returns 0x00 (0000ms, 0435ms total)
T17E8 000:922 JLINK_SetBPEx(Addr = 0x20000000, Type = 0xFFFFFFF2)  returns 0x00000008 (0000ms, 0435ms total)
T17E8 000:923 JLINK_Go() (0003ms, 0439ms total)
T17E8 000:926 JLINK_IsHalted()  returns FALSE (0001ms, 0440ms total)
T17E8 000:960 JLINK_IsHalted() -- CPU_ReadMem(2 bytes @ 0x20000000)  returns TRUE (0008ms, 0447ms total)
T17E8 000:968 JLINK_ReadReg(R15)  returns 0x20000000 (0000ms, 0439ms total)
T17E8 000:968 JLINK_ClrBPEx(BPHandle = 0x00000008)  returns 0x00 (0000ms, 0439ms total)
T17E8 000:968 JLINK_ReadReg(R0)  returns 0x00000000 (0000ms, 0439ms total)
T17E8 000:968 JLINK_WriteMem(0x20000128, 0x0400 Bytes, ...) -- Data:  4F F0 7F 01 81 F3 11 88 70 47 80 F3 11 88 70 47 ... -- CPU_WriteMem(1024 bytes @ 0x20000128)  returns 0x400 (0012ms, 0451ms total)
T17E8 000:980 JLINK_WriteReg(R0, 0x00000400)  returns 0x00 (0000ms, 0451ms total)
T17E8 000:980 JLINK_WriteReg(R1, 0x00000400)  returns 0x00 (0000ms, 0451ms total)
T17E8 000:980 JLINK_WriteReg(R2, 0x20000128)  returns 0x00 (0000ms, 0451ms total)
T17E8 000:980 JLINK_WriteReg(R3, 0x00000000)  returns 0x00 (0000ms, 0451ms total)
T17E8 000:980 JLINK_WriteReg(R4, 0x00000000)  returns 0x00 (0001ms, 0452ms total)
T17E8 000:981 JLINK_WriteReg(R5, 0x00000000)  returns 0x00 (0000ms, 0452ms total)
T17E8 000:981 JLINK_WriteReg(R6, 0x00000000)  returns 0x00 (0000ms, 0452ms total)
T17E8 000:981 JLINK_WriteReg(R7, 0x00000000)  returns 0x00 (0000ms, 0452ms total)
T17E8 000:981 JLINK_WriteReg(R8, 0x00000000)  returns 0x00 (0000ms, 0452ms total)
T17E8 000:981 JLINK_WriteReg(R9, 0x20000124)  returns 0x00 (0000ms, 0452ms total)
T17E8 000:981 JLINK_WriteReg(R10, 0x00000000)  returns 0x00 (0000ms, 0452ms total)
T17E8 000:981 JLINK_WriteReg(R11, 0x00000000)  returns 0x00 (0000ms, 0452ms total)
T17E8 000:981 JLINK_WriteReg(R12, 0x00000000)  returns 0x00 (0000ms, 0452ms total)
T17E8 000:981 JLINK_WriteReg(R13, 0x20000800)  returns 0x00 (0000ms, 0452ms total)
T17E8 000:981 JLINK_WriteReg(R14, 0x20000001)  returns 0x00 (0000ms, 0452ms total)
T17E8 000:981 JLINK_WriteReg(R15, 0x20000092)  returns 0x00 (0000ms, 0452ms total)
T17E8 000:981 JLINK_WriteReg(XPSR, 0x01000000)  returns 0x00 (0000ms, 0452ms total)
T17E8 000:981 JLINK_WriteReg(MSP, 0x20000800)  returns 0x00 (0000ms, 0452ms total)
T17E8 000:981 JLINK_WriteReg(PSP, 0x20000800)  returns 0x00 (0000ms, 0452ms total)
T17E8 000:981 JLINK_WriteReg(CFBP, 0x00000000)  returns 0x00 (0000ms, 0452ms total)
T17E8 000:981 JLINK_SetBPEx(Addr = 0x20000000, Type = 0xFFFFFFF2)  returns 0x00000009 (0000ms, 0452ms total)
T17E8 000:981 JLINK_Go() (0003ms, 0455ms total)
T17E8 000:984 JLINK_IsHalted()  returns FALSE (0002ms, 0457ms total)
T17E8 001:012 JLINK_IsHalted() -- CPU_ReadMem(2 bytes @ 0x20000000)  returns TRUE (0009ms, 0464ms total)
T17E8 001:021 JLINK_ReadReg(R15)  returns 0x20000000 (0000ms, 0455ms total)
T17E8 001:021 JLINK_ClrBPEx(BPHandle = 0x00000009)  returns 0x00 (0000ms, 0455ms total)
T17E8 001:021 JLINK_ReadReg(R0)  returns 0x00000000 (0000ms, 0455ms total)
T17E8 001:021 JLINK_WriteMem(0x20000128, 0x0400 Bytes, ...) -- Data:  10 D2 2A 46 69 46 20 46 FF F7 B7 FF 60 6A 08 B9 ... -- CPU_WriteMem(1024 bytes @ 0x20000128)  returns 0x400 (0012ms, 0467ms total)
T17E8 001:033 JLINK_WriteReg(R0, 0x00000800)  returns 0x00 (0000ms, 0467ms total)
T17E8 001:033 JLINK_WriteReg(R1, 0x00000400)  returns 0x00 (0000ms, 0467ms total)
T17E8 001:033 JLINK_WriteReg(R2, 0x20000128)  returns 0x00 (0000ms, 0467ms total)
T17E8 001:033 JLINK_WriteReg(R3, 0x00000000)  returns 0x00 (0000ms, 0467ms total)
T17E8 001:033 JLINK_WriteReg(R4, 0x00000000)  returns 0x00 (0000ms, 0467ms total)
T17E8 001:033 JLINK_WriteReg(R5, 0x00000000)  returns 0x00 (0000ms, 0467ms total)
T17E8 001:033 JLINK_WriteReg(R6, 0x00000000)  returns 0x00 (0000ms, 0467ms total)
T17E8 001:033 JLINK_WriteReg(R7, 0x00000000)  returns 0x00 (0000ms, 0467ms total)
T17E8 001:033 JLINK_WriteReg(R8, 0x00000000)  returns 0x00 (0000ms, 0467ms total)
T17E8 001:033 JLINK_WriteReg(R9, 0x20000124)  returns 0x00 (0000ms, 0467ms total)
T17E8 001:033 JLINK_WriteReg(R10, 0x00000000)  returns 0x00 (0000ms, 0467ms total)
T17E8 001:033 JLINK_WriteReg(R11, 0x00000000)  returns 0x00 (0000ms, 0467ms total)
T17E8 001:033 JLINK_WriteReg(R12, 0x00000000)  returns 0x00 (0000ms, 0467ms total)
T17E8 001:033 JLINK_WriteReg(R13, 0x20000800)  returns 0x00 (0000ms, 0467ms total)
T17E8 001:033 JLINK_WriteReg(R14, 0x20000001)  returns 0x00 (0000ms, 0467ms total)
T17E8 001:033 JLINK_WriteReg(R15, 0x20000092)  returns 0x00 (0000ms, 0467ms total)
T17E8 001:033 JLINK_WriteReg(XPSR, 0x01000000)  returns 0x00 (0000ms, 0467ms total)
T17E8 001:033 JLINK_WriteReg(MSP, 0x20000800)  returns 0x00 (0000ms, 0467ms total)
T17E8 001:033 JLINK_WriteReg(PSP, 0x20000800)  returns 0x00 (0000ms, 0467ms total)
T17E8 001:033 JLINK_WriteReg(CFBP, 0x00000000)  returns 0x00 (0000ms, 0467ms total)
T17E8 001:033 JLINK_SetBPEx(Addr = 0x20000000, Type = 0xFFFFFFF2)  returns 0x0000000A (0000ms, 0467ms total)
T17E8 001:033 JLINK_Go() (0004ms, 0471ms total)
T17E8 001:037 JLINK_IsHalted()  returns FALSE (0001ms, 0472ms total)
T17E8 001:040 JLINK_IsHalted()  returns FALSE (0001ms, 0472ms total)
T17E8 001:042 JLINK_IsHalted()  returns FALSE (0001ms, 0472ms total)
T17E8 001:045 JLINK_IsHalted()  returns FALSE (0001ms, 0472ms total)
T17E8 001:048 JLINK_IsHalted()  returns FALSE (0001ms, 0472ms total)
T17E8 001:051 JLINK_IsHalted()  returns FALSE (0001ms, 0472ms total)
T17E8 001:054 JLINK_IsHalted()  returns FALSE (0001ms, 0472ms total)
T17E8 001:057 JLINK_IsHalted() -- CPU_ReadMem(2 bytes @ 0x20000000)  returns TRUE (0007ms, 0478ms total)
T17E8 001:064 JLINK_ReadReg(R15)  returns 0x20000000 (0000ms, 0471ms total)
T17E8 001:065 JLINK_ClrBPEx(BPHandle = 0x0000000A)  returns 0x00 (0000ms, 0472ms total)
T17E8 001:065 JLINK_ReadReg(R0)  returns 0x00000000 (0000ms, 0472ms total)
T17E8 001:066 JLINK_WriteMem(0x20000128, 0x0400 Bytes, ...) -- Data:  02 22 00 21 30 46 FF F7 92 FD 04 46 04 B1 A5 63 ... -- CPU_WriteMem(1024 bytes @ 0x20000128)  returns 0x400 (0012ms, 0484ms total)
T17E8 001:078 JLINK_WriteReg(R0, 0x00000C00)  returns 0x00 (0000ms, 0484ms total)
T17E8 001:078 JLINK_WriteReg(R1, 0x00000400)  returns 0x00 (0000ms, 0484ms total)
T17E8 001:078 JLINK_WriteReg(R2, 0x20000128)  returns 0x00 (0000ms, 0484ms total)
T17E8 001:078 JLINK_WriteReg(R3, 0x00000000)  returns 0x00 (0000ms, 0484ms total)
T17E8 001:078 JLINK_WriteReg(R4, 0x00000000)  returns 0x00 (0000ms, 0484ms total)
T17E8 001:078 JLINK_WriteReg(R5, 0x00000000)  returns 0x00 (0000ms, 0484ms total)
T17E8 001:078 JLINK_WriteReg(R6, 0x00000000)  returns 0x00 (0000ms, 0484ms total)
T17E8 001:078 JLINK_WriteReg(R7, 0x00000000)  returns 0x00 (0000ms, 0484ms total)
T17E8 001:078 JLINK_WriteReg(R8, 0x00000000)  returns 0x00 (0000ms, 0484ms total)
T17E8 001:078 JLINK_WriteReg(R9, 0x20000124)  returns 0x00 (0000ms, 0484ms total)
T17E8 001:078 JLINK_WriteReg(R10, 0x00000000)  returns 0x00 (0000ms, 0484ms total)
T17E8 001:078 JLINK_WriteReg(R11, 0x00000000)  returns 0x00 (0000ms, 0484ms total)
T17E8 001:078 JLINK_WriteReg(R12, 0x00000000)  returns 0x00 (0000ms, 0484ms total)
T17E8 001:078 JLINK_WriteReg(R13, 0x20000800)  returns 0x00 (0000ms, 0484ms total)
T17E8 001:078 JLINK_WriteReg(R14, 0x20000001)  returns 0x00 (0000ms, 0484ms total)
T17E8 001:078 JLINK_WriteReg(R15, 0x20000092)  returns 0x00 (0000ms, 0484ms total)
T17E8 001:078 JLINK_WriteReg(XPSR, 0x01000000)  returns 0x00 (0000ms, 0484ms total)
T17E8 001:078 JLINK_WriteReg(MSP, 0x20000800)  returns 0x00 (0000ms, 0484ms total)
T17E8 001:078 JLINK_WriteReg(PSP, 0x20000800)  returns 0x00 (0000ms, 0484ms total)
T17E8 001:078 JLINK_WriteReg(CFBP, 0x00000000)  returns 0x00 (0000ms, 0484ms total)
T17E8 001:078 JLINK_SetBPEx(Addr = 0x20000000, Type = 0xFFFFFFF2)  returns 0x0000000B (0000ms, 0484ms total)
T17E8 001:078 JLINK_Go() (0003ms, 0487ms total)
T17E8 001:081 JLINK_IsHalted()  returns FALSE (0002ms, 0489ms total)
T17E8 001:110 JLINK_IsHalted() -- CPU_ReadMem(2 bytes @ 0x20000000)  returns TRUE (0008ms, 0495ms total)
T17E8 001:118 JLINK_ReadReg(R15)  returns 0x20000000 (0000ms, 0487ms total)
T17E8 001:118 JLINK_ClrBPEx(BPHandle = 0x0000000B)  returns 0x00 (0000ms, 0487ms total)
T17E8 001:118 JLINK_ReadReg(R0)  returns 0x00000000 (0000ms, 0487ms total)
T17E8 001:119 JLINK_WriteMem(0x20000128, 0x0400 Bytes, ...) -- Data:  38 BD 00 00 DC 00 00 20 10 B5 00 24 07 E0 04 EB ... -- CPU_WriteMem(1024 bytes @ 0x20000128)  returns 0x400 (0010ms, 0497ms total)
T17E8 001:129 JLINK_WriteReg(R0, 0x00001000)  returns 0x00 (0000ms, 0497ms total)
T17E8 001:129 JLINK_WriteReg(R1, 0x00000400)  returns 0x00 (0000ms, 0497ms total)
T17E8 001:129 JLINK_WriteReg(R2, 0x20000128)  returns 0x00 (0000ms, 0497ms total)
T17E8 001:129 JLINK_WriteReg(R3, 0x00000000)  returns 0x00 (0000ms, 0497ms total)
T17E8 001:129 JLINK_WriteReg(R4, 0x00000000)  returns 0x00 (0000ms, 0497ms total)
T17E8 001:129 JLINK_WriteReg(R5, 0x00000000)  returns 0x00 (0000ms, 0497ms total)
T17E8 001:129 JLINK_WriteReg(R6, 0x00000000)  returns 0x00 (0000ms, 0497ms total)
T17E8 001:129 JLINK_WriteReg(R7, 0x00000000)  returns 0x00 (0000ms, 0497ms total)
T17E8 001:129 JLINK_WriteReg(R8, 0x00000000)  returns 0x00 (0000ms, 0497ms total)
T17E8 001:129 JLINK_WriteReg(R9, 0x20000124)  returns 0x00 (0000ms, 0497ms total)
T17E8 001:129 JLINK_WriteReg(R10, 0x00000000)  returns 0x00 (0000ms, 0497ms total)
T17E8 001:129 JLINK_WriteReg(R11, 0x00000000)  returns 0x00 (0000ms, 0497ms total)
T17E8 001:129 JLINK_WriteReg(R12, 0x00000000)  returns 0x00 (0000ms, 0497ms total)
T17E8 001:129 JLINK_WriteReg(R13, 0x20000800)  returns 0x00 (0000ms, 0497ms total)
T17E8 001:129 JLINK_WriteReg(R14, 0x20000001)  returns 0x00 (0000ms, 0497ms total)
T17E8 001:129 JLINK_WriteReg(R15, 0x20000092)  returns 0x00 (0000ms, 0497ms total)
T17E8 001:129 JLINK_WriteReg(XPSR, 0x01000000)  returns 0x00 (0000ms, 0497ms total)
T17E8 001:129 JLINK_WriteReg(MSP, 0x20000800)  returns 0x00 (0000ms, 0497ms total)
T17E8 001:129 JLINK_WriteReg(PSP, 0x20000800)  returns 0x00 (0000ms, 0497ms total)
T17E8 001:129 JLINK_WriteReg(CFBP, 0x00000000)  returns 0x00 (0000ms, 0497ms total)
T17E8 001:129 JLINK_SetBPEx(Addr = 0x20000000, Type = 0xFFFFFFF2)  returns 0x0000000C (0000ms, 0497ms total)
T17E8 001:129 JLINK_Go() (0004ms, 0501ms total)
T17E8 001:133 JLINK_IsHalted()  returns FALSE (0001ms, 0502ms total)
T17E8 001:136 JLINK_IsHalted()  returns FALSE (0001ms, 0502ms total)
T17E8 001:139 JLINK_IsHalted()  returns FALSE (0001ms, 0502ms total)
T17E8 001:142 JLINK_IsHalted()  returns FALSE (0001ms, 0502ms total)
T17E8 001:145 JLINK_IsHalted()  returns FALSE (0001ms, 0502ms total)
T17E8 001:148 JLINK_IsHalted()  returns FALSE (0001ms, 0502ms total)
T17E8 001:151 JLINK_IsHalted()  returns FALSE (0001ms, 0502ms total)
T17E8 001:154 JLINK_IsHalted() -- CPU_ReadMem(2 bytes @ 0x20000000)  returns TRUE (0008ms, 0509ms total)
T17E8 001:162 JLINK_ReadReg(R15)  returns 0x20000000 (0000ms, 0501ms total)
T17E8 001:162 JLINK_ClrBPEx(BPHandle = 0x0000000C)  returns 0x00 (0000ms, 0501ms total)
T17E8 001:162 JLINK_ReadReg(R0)  returns 0x00000000 (0000ms, 0501ms total)
T17E8 001:163 JLINK_WriteMem(0x20000128, 0x0400 Bytes, ...) -- Data:  01 25 00 F0 C3 FC 00 F0 D8 FC 27 E0 2C 01 00 20 ... -- CPU_WriteMem(1024 bytes @ 0x20000128)  returns 0x400 (0010ms, 0511ms total)
T17E8 001:173 JLINK_WriteReg(R0, 0x00001400)  returns 0x00 (0000ms, 0511ms total)
T17E8 001:173 JLINK_WriteReg(R1, 0x00000400)  returns 0x00 (0000ms, 0511ms total)
T17E8 001:173 JLINK_WriteReg(R2, 0x20000128)  returns 0x00 (0000ms, 0511ms total)
T17E8 001:173 JLINK_WriteReg(R3, 0x00000000)  returns 0x00 (0000ms, 0511ms total)
T17E8 001:173 JLINK_WriteReg(R4, 0x00000000)  returns 0x00 (0000ms, 0511ms total)
T17E8 001:173 JLINK_WriteReg(R5, 0x00000000)  returns 0x00 (0000ms, 0511ms total)
T17E8 001:173 JLINK_WriteReg(R6, 0x00000000)  returns 0x00 (0000ms, 0511ms total)
T17E8 001:173 JLINK_WriteReg(R7, 0x00000000)  returns 0x00 (0000ms, 0511ms total)
T17E8 001:173 JLINK_WriteReg(R8, 0x00000000)  returns 0x00 (0000ms, 0511ms total)
T17E8 001:173 JLINK_WriteReg(R9, 0x20000124)  returns 0x00 (0000ms, 0511ms total)
T17E8 001:173 JLINK_WriteReg(R10, 0x00000000)  returns 0x00 (0000ms, 0511ms total)
T17E8 001:173 JLINK_WriteReg(R11, 0x00000000)  returns 0x00 (0000ms, 0511ms total)
T17E8 001:173 JLINK_WriteReg(R12, 0x00000000)  returns 0x00 (0001ms, 0512ms total)
T17E8 001:174 JLINK_WriteReg(R13, 0x20000800)  returns 0x00 (0000ms, 0512ms total)
T17E8 001:174 JLINK_WriteReg(R14, 0x20000001)  returns 0x00 (0000ms, 0512ms total)
T17E8 001:174 JLINK_WriteReg(R15, 0x20000092)  returns 0x00 (0000ms, 0512ms total)
T17E8 001:174 JLINK_WriteReg(XPSR, 0x01000000)  returns 0x00 (0000ms, 0512ms total)
T17E8 001:174 JLINK_WriteReg(MSP, 0x20000800)  returns 0x00 (0000ms, 0512ms total)
T17E8 001:174 JLINK_WriteReg(PSP, 0x20000800)  returns 0x00 (0000ms, 0512ms total)
T17E8 001:174 JLINK_WriteReg(CFBP, 0x00000000)  returns 0x00 (0000ms, 0512ms total)
T17E8 001:174 JLINK_SetBPEx(Addr = 0x20000000, Type = 0xFFFFFFF2)  returns 0x0000000D (0000ms, 0512ms total)
T17E8 001:174 JLINK_Go() (0003ms, 0515ms total)
T17E8 001:177 JLINK_IsHalted()  returns FALSE (0001ms, 0516ms total)
T17E8 001:180 JLINK_IsHalted()  returns FALSE (0001ms, 0516ms total)
T17E8 001:183 JLINK_IsHalted()  returns FALSE (0001ms, 0516ms total)
T17E8 001:186 JLINK_IsHalted()  returns FALSE (0001ms, 0516ms total)
T17E8 001:221 JLINK_IsHalted() -- CPU_ReadMem(2 bytes @ 0x20000000)  returns TRUE (0008ms, 0523ms total)
T17E8 001:229 JLINK_ReadReg(R15)  returns 0x20000000 (0000ms, 0515ms total)
T17E8 001:229 JLINK_ClrBPEx(BPHandle = 0x0000000D)  returns 0x00 (0000ms, 0515ms total)
T17E8 001:229 JLINK_ReadReg(R0)  returns 0x00000000 (0000ms, 0515ms total)
T17E8 001:242 JLINK_WriteMem(0x20000128, 0x0400 Bytes, ...) -- Data:  25 D0 00 F0 CD FA 20 46 FF F7 D7 FF 01 28 1C D1 ... -- CPU_WriteMem(1024 bytes @ 0x20000128)  returns 0x400 (0010ms, 0525ms total)
T17E8 001:252 JLINK_WriteReg(R0, 0x00001800)  returns 0x00 (0000ms, 0525ms total)
T17E8 001:252 JLINK_WriteReg(R1, 0x00000400)  returns 0x00 (0000ms, 0525ms total)
T17E8 001:252 JLINK_WriteReg(R2, 0x20000128)  returns 0x00 (0000ms, 0525ms total)
T17E8 001:252 JLINK_WriteReg(R3, 0x00000000)  returns 0x00 (0000ms, 0525ms total)
T17E8 001:252 JLINK_WriteReg(R4, 0x00000000)  returns 0x00 (0000ms, 0525ms total)
T17E8 001:252 JLINK_WriteReg(R5, 0x00000000)  returns 0x00 (0000ms, 0525ms total)
T17E8 001:252 JLINK_WriteReg(R6, 0x00000000)  returns 0x00 (0000ms, 0525ms total)
T17E8 001:252 JLINK_WriteReg(R7, 0x00000000)  returns 0x00 (0000ms, 0525ms total)
T17E8 001:252 JLINK_WriteReg(R8, 0x00000000)  returns 0x00 (0000ms, 0525ms total)
T17E8 001:252 JLINK_WriteReg(R9, 0x20000124)  returns 0x00 (0000ms, 0525ms total)
T17E8 001:252 JLINK_WriteReg(R10, 0x00000000)  returns 0x00 (0000ms, 0525ms total)
T17E8 001:252 JLINK_WriteReg(R11, 0x00000000)  returns 0x00 (0000ms, 0525ms total)
T17E8 001:252 JLINK_WriteReg(R12, 0x00000000)  returns 0x00 (0000ms, 0525ms total)
T17E8 001:252 JLINK_WriteReg(R13, 0x20000800)  returns 0x00 (0000ms, 0525ms total)
T17E8 001:252 JLINK_WriteReg(R14, 0x20000001)  returns 0x00 (0000ms, 0525ms total)
T17E8 001:252 JLINK_WriteReg(R15, 0x20000092)  returns 0x00 (0000ms, 0525ms total)
T17E8 001:252 JLINK_WriteReg(XPSR, 0x01000000)  returns 0x00 (0000ms, 0525ms total)
T17E8 001:252 JLINK_WriteReg(MSP, 0x20000800)  returns 0x00 (0000ms, 0525ms total)
T17E8 001:252 JLINK_WriteReg(PSP, 0x20000800)  returns 0x00 (0000ms, 0525ms total)
T17E8 001:252 JLINK_WriteReg(CFBP, 0x00000000)  returns 0x00 (0000ms, 0525ms total)
T17E8 001:252 JLINK_SetBPEx(Addr = 0x20000000, Type = 0xFFFFFFF2)  returns 0x0000000E (0000ms, 0525ms total)
T17E8 001:252 JLINK_Go() (0004ms, 0529ms total)
T17E8 001:256 JLINK_IsHalted()  returns FALSE (0001ms, 0530ms total)
T17E8 001:259 JLINK_IsHalted()  returns FALSE (0001ms, 0530ms total)
T17E8 001:262 JLINK_IsHalted()  returns FALSE (0001ms, 0530ms total)
T17E8 001:265 JLINK_IsHalted()  returns FALSE (0001ms, 0530ms total)
T17E8 001:268 JLINK_IsHalted()  returns FALSE (0001ms, 0530ms total)
T17E8 001:271 JLINK_IsHalted()  returns FALSE (0001ms, 0530ms total)
T17E8 001:274 JLINK_IsHalted()  returns FALSE (0001ms, 0530ms total)
T17E8 001:277 JLINK_IsHalted() -- CPU_ReadMem(2 bytes @ 0x20000000)  returns TRUE (0008ms, 0537ms total)
T17E8 001:285 JLINK_ReadReg(R15)  returns 0x20000000 (0000ms, 0529ms total)
T17E8 001:285 JLINK_ClrBPEx(BPHandle = 0x0000000E)  returns 0x00 (0000ms, 0529ms total)
T17E8 001:285 JLINK_ReadReg(R0)  returns 0x00000000 (0000ms, 0529ms total)
T17E8 001:286 JLINK_WriteMem(0x20000128, 0x0400 Bytes, ...) -- Data:  81 00 21 1D FE F7 22 FD 03 E0 25 48 00 68 C0 6A ... -- CPU_WriteMem(1024 bytes @ 0x20000128)  returns 0x400 (0010ms, 0539ms total)
T17E8 001:296 JLINK_WriteReg(R0, 0x00001C00)  returns 0x00 (0000ms, 0539ms total)
T17E8 001:296 JLINK_WriteReg(R1, 0x00000400)  returns 0x00 (0000ms, 0539ms total)
T17E8 001:296 JLINK_WriteReg(R2, 0x20000128)  returns 0x00 (0000ms, 0539ms total)
T17E8 001:296 JLINK_WriteReg(R3, 0x00000000)  returns 0x00 (0000ms, 0539ms total)
T17E8 001:296 JLINK_WriteReg(R4, 0x00000000)  returns 0x00 (0000ms, 0539ms total)
T17E8 001:296 JLINK_WriteReg(R5, 0x00000000)  returns 0x00 (0000ms, 0539ms total)
T17E8 001:296 JLINK_WriteReg(R6, 0x00000000)  returns 0x00 (0000ms, 0539ms total)
T17E8 001:296 JLINK_WriteReg(R7, 0x00000000)  returns 0x00 (0000ms, 0539ms total)
T17E8 001:296 JLINK_WriteReg(R8, 0x00000000)  returns 0x00 (0000ms, 0539ms total)
T17E8 001:296 JLINK_WriteReg(R9, 0x20000124)  returns 0x00 (0000ms, 0539ms total)
T17E8 001:296 JLINK_WriteReg(R10, 0x00000000)  returns 0x00 (0000ms, 0539ms total)
T17E8 001:296 JLINK_WriteReg(R11, 0x00000000)  returns 0x00 (0000ms, 0539ms total)
T17E8 001:296 JLINK_WriteReg(R12, 0x00000000)  returns 0x00 (0000ms, 0539ms total)
T17E8 001:296 JLINK_WriteReg(R13, 0x20000800)  returns 0x00 (0000ms, 0539ms total)
T17E8 001:296 JLINK_WriteReg(R14, 0x20000001)  returns 0x00 (0000ms, 0539ms total)
T17E8 001:296 JLINK_WriteReg(R15, 0x20000092)  returns 0x00 (0000ms, 0539ms total)
T17E8 001:296 JLINK_WriteReg(XPSR, 0x01000000)  returns 0x00 (0001ms, 0540ms total)
T17E8 001:297 JLINK_WriteReg(MSP, 0x20000800)  returns 0x00 (0000ms, 0540ms total)
T17E8 001:297 JLINK_WriteReg(PSP, 0x20000800)  returns 0x00 (0000ms, 0540ms total)
T17E8 001:297 JLINK_WriteReg(CFBP, 0x00000000)  returns 0x00 (0000ms, 0540ms total)
T17E8 001:297 JLINK_SetBPEx(Addr = 0x20000000, Type = 0xFFFFFFF2)  returns 0x0000000F (0000ms, 0540ms total)
T17E8 001:297 JLINK_Go() (0003ms, 0543ms total)
T17E8 001:300 JLINK_IsHalted()  returns FALSE (0001ms, 0544ms total)
T17E8 001:336 JLINK_IsHalted() -- CPU_ReadMem(2 bytes @ 0x20000000)  returns TRUE (0008ms, 0551ms total)
T17E8 001:344 JLINK_ReadReg(R15)  returns 0x20000000 (0000ms, 0543ms total)
T17E8 001:344 JLINK_ClrBPEx(BPHandle = 0x0000000F)  returns 0x00 (0000ms, 0543ms total)
T17E8 001:344 JLINK_ReadReg(R0)  returns 0x00000000 (0000ms, 0543ms total)
T17E8 001:345 JLINK_WriteMem(0x20000128, 0x0400 Bytes, ...) -- Data:  FF F7 F1 FF 4D 48 00 68 FF F7 D8 FF 00 20 02 23 ... -- CPU_WriteMem(1024 bytes @ 0x20000128)  returns 0x400 (0012ms, 0555ms total)
T17E8 001:357 JLINK_WriteReg(R0, 0x00002000)  returns 0x00 (0000ms, 0555ms total)
T17E8 001:357 JLINK_WriteReg(R1, 0x00000400)  returns 0x00 (0000ms, 0555ms total)
T17E8 001:357 JLINK_WriteReg(R2, 0x20000128)  returns 0x00 (0000ms, 0555ms total)
T17E8 001:357 JLINK_WriteReg(R3, 0x00000000)  returns 0x00 (0000ms, 0555ms total)
T17E8 001:357 JLINK_WriteReg(R4, 0x00000000)  returns 0x00 (0000ms, 0555ms total)
T17E8 001:357 JLINK_WriteReg(R5, 0x00000000)  returns 0x00 (0000ms, 0555ms total)
T17E8 001:357 JLINK_WriteReg(R6, 0x00000000)  returns 0x00 (0000ms, 0555ms total)
T17E8 001:357 JLINK_WriteReg(R7, 0x00000000)  returns 0x00 (0000ms, 0555ms total)
T17E8 001:357 JLINK_WriteReg(R8, 0x00000000)  returns 0x00 (0000ms, 0555ms total)
T17E8 001:357 JLINK_WriteReg(R9, 0x20000124)  returns 0x00 (0000ms, 0555ms total)
T17E8 001:357 JLINK_WriteReg(R10, 0x00000000)  returns 0x00 (0000ms, 0555ms total)
T17E8 001:357 JLINK_WriteReg(R11, 0x00000000)  returns 0x00 (0000ms, 0555ms total)
T17E8 001:357 JLINK_WriteReg(R12, 0x00000000)  returns 0x00 (0000ms, 0555ms total)
T17E8 001:357 JLINK_WriteReg(R13, 0x20000800)  returns 0x00 (0000ms, 0555ms total)
T17E8 001:357 JLINK_WriteReg(R14, 0x20000001)  returns 0x00 (0000ms, 0555ms total)
T17E8 001:357 JLINK_WriteReg(R15, 0x20000092)  returns 0x00 (0000ms, 0555ms total)
T17E8 001:357 JLINK_WriteReg(XPSR, 0x01000000)  returns 0x00 (0000ms, 0555ms total)
T17E8 001:357 JLINK_WriteReg(MSP, 0x20000800)  returns 0x00 (0000ms, 0555ms total)
T17E8 001:357 JLINK_WriteReg(PSP, 0x20000800)  returns 0x00 (0000ms, 0555ms total)
T17E8 001:357 JLINK_WriteReg(CFBP, 0x00000000)  returns 0x00 (0001ms, 0556ms total)
T17E8 001:358 JLINK_SetBPEx(Addr = 0x20000000, Type = 0xFFFFFFF2)  returns 0x00000010 (0000ms, 0556ms total)
T17E8 001:358 JLINK_Go() (0003ms, 0559ms total)
T17E8 001:361 JLINK_IsHalted()  returns FALSE (0001ms, 0560ms total)
T17E8 001:365 JLINK_IsHalted()  returns FALSE (0001ms, 0560ms total)
T17E8 001:368 JLINK_IsHalted()  returns FALSE (0001ms, 0560ms total)
T17E8 001:371 JLINK_IsHalted()  returns FALSE (0001ms, 0560ms total)
T17E8 001:374 JLINK_IsHalted()  returns FALSE (0000ms, 0559ms total)
T17E8 001:376 JLINK_IsHalted()  returns FALSE (0001ms, 0560ms total)
T17E8 001:379 JLINK_IsHalted()  returns FALSE (0001ms, 0560ms total)
T17E8 001:382 JLINK_IsHalted() -- CPU_ReadMem(2 bytes @ 0x20000000)  returns TRUE (0008ms, 0567ms total)
T17E8 001:390 JLINK_ReadReg(R15)  returns 0x20000000 (0000ms, 0559ms total)
T17E8 001:390 JLINK_ClrBPEx(BPHandle = 0x00000010)  returns 0x00 (0000ms, 0559ms total)
T17E8 001:390 JLINK_ReadReg(R0)  returns 0x00000000 (0000ms, 0559ms total)
T17E8 001:390 JLINK_WriteMem(0x20000128, 0x0400 Bytes, ...) -- Data:  20 78 28 B1 20 78 20 28 02 D0 20 78 09 28 F6 D1 ... -- CPU_WriteMem(1024 bytes @ 0x20000128)  returns 0x400 (0012ms, 0571ms total)
T17E8 001:402 JLINK_WriteReg(R0, 0x00002400)  returns 0x00 (0000ms, 0571ms total)
T17E8 001:402 JLINK_WriteReg(R1, 0x00000400)  returns 0x00 (0000ms, 0571ms total)
T17E8 001:402 JLINK_WriteReg(R2, 0x20000128)  returns 0x00 (0000ms, 0571ms total)
T17E8 001:402 JLINK_WriteReg(R3, 0x00000000)  returns 0x00 (0000ms, 0571ms total)
T17E8 001:402 JLINK_WriteReg(R4, 0x00000000)  returns 0x00 (0000ms, 0571ms total)
T17E8 001:402 JLINK_WriteReg(R5, 0x00000000)  returns 0x00 (0000ms, 0571ms total)
T17E8 001:402 JLINK_WriteReg(R6, 0x00000000)  returns 0x00 (0000ms, 0571ms total)
T17E8 001:402 JLINK_WriteReg(R7, 0x00000000)  returns 0x00 (0000ms, 0571ms total)
T17E8 001:402 JLINK_WriteReg(R8, 0x00000000)  returns 0x00 (0000ms, 0571ms total)
T17E8 001:402 JLINK_WriteReg(R9, 0x20000124)  returns 0x00 (0000ms, 0571ms total)
T17E8 001:402 JLINK_WriteReg(R10, 0x00000000)  returns 0x00 (0000ms, 0571ms total)
T17E8 001:402 JLINK_WriteReg(R11, 0x00000000)  returns 0x00 (0000ms, 0571ms total)
T17E8 001:402 JLINK_WriteReg(R12, 0x00000000)  returns 0x00 (0000ms, 0571ms total)
T17E8 001:402 JLINK_WriteReg(R13, 0x20000800)  returns 0x00 (0000ms, 0571ms total)
T17E8 001:402 JLINK_WriteReg(R14, 0x20000001)  returns 0x00 (0000ms, 0571ms total)
T17E8 001:402 JLINK_WriteReg(R15, 0x20000092)  returns 0x00 (0000ms, 0571ms total)
T17E8 001:402 JLINK_WriteReg(XPSR, 0x01000000)  returns 0x00 (0000ms, 0571ms total)
T17E8 001:402 JLINK_WriteReg(MSP, 0x20000800)  returns 0x00 (0000ms, 0571ms total)
T17E8 001:402 JLINK_WriteReg(PSP, 0x20000800)  returns 0x00 (0000ms, 0571ms total)
T17E8 001:402 JLINK_WriteReg(CFBP, 0x00000000)  returns 0x00 (0000ms, 0571ms total)
T17E8 001:402 JLINK_SetBPEx(Addr = 0x20000000, Type = 0xFFFFFFF2)  returns 0x00000011 (0000ms, 0571ms total)
T17E8 001:402 JLINK_Go() (0004ms, 0575ms total)
T17E8 001:406 JLINK_IsHalted()  returns FALSE (0001ms, 0576ms total)
T17E8 001:434 JLINK_IsHalted() -- CPU_ReadMem(2 bytes @ 0x20000000)  returns TRUE (0008ms, 0583ms total)
T17E8 001:442 JLINK_ReadReg(R15)  returns 0x20000000 (0000ms, 0575ms total)
T17E8 001:442 JLINK_ClrBPEx(BPHandle = 0x00000011)  returns 0x00 (0000ms, 0575ms total)
T17E8 001:442 JLINK_ReadReg(R0)  returns 0x00000000 (0000ms, 0575ms total)
T17E8 001:443 JLINK_WriteMem(0x20000128, 0x0400 Bytes, ...) -- Data:  AB 5E 00 00 C0 5E 00 00 00 20 00 E0 40 1C 0F 28 ... -- CPU_WriteMem(1024 bytes @ 0x20000128)  returns 0x400 (0011ms, 0586ms total)
T17E8 001:454 JLINK_WriteReg(R0, 0x00002800)  returns 0x00 (0000ms, 0586ms total)
T17E8 001:454 JLINK_WriteReg(R1, 0x00000400)  returns 0x00 (0000ms, 0586ms total)
T17E8 001:454 JLINK_WriteReg(R2, 0x20000128)  returns 0x00 (0001ms, 0587ms total)
T17E8 001:455 JLINK_WriteReg(R3, 0x00000000)  returns 0x00 (0000ms, 0587ms total)
T17E8 001:455 JLINK_WriteReg(R4, 0x00000000)  returns 0x00 (0000ms, 0587ms total)
T17E8 001:455 JLINK_WriteReg(R5, 0x00000000)  returns 0x00 (0000ms, 0587ms total)
T17E8 001:455 JLINK_WriteReg(R6, 0x00000000)  returns 0x00 (0000ms, 0587ms total)
T17E8 001:455 JLINK_WriteReg(R7, 0x00000000)  returns 0x00 (0000ms, 0587ms total)
T17E8 001:455 JLINK_WriteReg(R8, 0x00000000)  returns 0x00 (0000ms, 0587ms total)
T17E8 001:455 JLINK_WriteReg(R9, 0x20000124)  returns 0x00 (0000ms, 0587ms total)
T17E8 001:455 JLINK_WriteReg(R10, 0x00000000)  returns 0x00 (0000ms, 0587ms total)
